T0498 000:006.052   SEGGER J-Link V7.52c Log File
T0498 000:006.161   DLL Compiled: Aug 10 2021 17:30:02
T0498 000:006.166   Logging started @ 2021-10-14 11:12
T0498 000:006.170 - 6.172ms
T0498 000:006.178 JLINK_SetWarnOutHandler(...)
T0498 000:006.183 - 0.007ms
T0498 000:006.188 JLINK_OpenEx(...)
T0498 000:007.291   Firmware: J-Link ARM V7 compiled Jun 20 2012 19:45:53
T0498 000:007.509   Firmware: J-Link ARM V7 compiled Jun 20 2012 19:45:53
T0498 000:008.820   Hardware: V7.00
T0498 000:008.833   S/N: 57000442
T0498 000:008.840   OEM: SEGGER
T0498 000:008.847   Feature(s): RDI, FlashBP, FlashDL, JFlash, GDB
T0498 000:009.437   TELNET listener socket opened on port 19021
T0498 000:009.531   WEBSRV Starting webserver
T0498 000:009.616   WEBSRV Webserver running on local port 19080
T0498 000:017.979 - 11.799ms returns "O.K."
T0498 000:017.999 JLINK_GetEmuCaps()
T0498 000:018.004 - 0.007ms returns 0xB9FF7BBF
T0498 000:018.014 JLINK_TIF_GetAvailable(...)
T0498 000:018.129 - 0.123ms
T0498 000:018.148 JLINK_SetErrorOutHandler(...)
T0498 000:018.154 - 0.008ms
T0498 000:018.176 JLINK_ExecCommand("ProjectFile = "C:\Users\DV\Desktop\MDR\drivecontrol\JLinkSettings.ini"", ...). 
T0498 000:025.179   Ref file found at: C:\Keil_v5\ARM\Segger\JLinkDevices.ref
T0498 000:025.254   XML referenced by ref file: C:\Program Files (x86)\SEGGER\JLink\JLinkDevices.xml
T0498 000:025.856   C:\Program Files (x86)\SEGGER\JLink\JLinkDevices.xml evaluated successfully.
T0498 000:045.858   Device "CORTEX-M3" selected.
T0498 000:046.147 - 27.974ms returns 0x00
T0498 000:046.196 JLINK_ExecCommand("Device = MDR1986BE92", ...). 
T0498 000:046.300   Device "CORTEX-M3" selected.
T0498 000:046.479 - 0.279ms returns 0x00
T0498 000:046.488 JLINK_ExecCommand("DisableConnectionTimeout", ...). 
T0498 000:046.495 - 0.003ms returns 0x01
T0498 000:046.500 JLINK_GetHardwareVersion()
T0498 000:046.507 - 0.009ms returns 70000
T0498 000:046.514 JLINK_GetDLLVersion()
T0498 000:046.518 - 0.006ms returns 75203
T0498 000:046.523 JLINK_GetOEMString(...)
T0498 000:046.528 JLINK_GetFirmwareString(...)
T0498 000:046.532 - 0.006ms
T0498 000:046.547 JLINK_GetDLLVersion()
T0498 000:046.551 - 0.006ms returns 75203
T0498 000:046.556 JLINK_GetCompileDateTime()
T0498 000:046.560 - 0.006ms
T0498 000:046.569 JLINK_GetFirmwareString(...)
T0498 000:046.573 - 0.006ms
T0498 000:046.580 JLINK_GetHardwareVersion()
T0498 000:046.584 - 0.006ms returns 70000
T0498 000:046.592 JLINK_GetSN()
T0498 000:046.597 - 0.006ms returns 57000442
T0498 000:046.604 JLINK_GetOEMString(...)
T0498 000:046.613 JLINK_TIF_Select(JLINKARM_TIF_SWD)
T0498 000:046.985 - 0.379ms returns 0x00
T0498 000:046.998 JLINK_HasError()
T0498 000:047.007 JLINK_SetSpeed(1000)
T0498 000:047.063 - 0.058ms
T0498 000:047.070 JLINK_GetId()
T0498 000:047.859   Found SW-DP with ID 0x2BA01477
T0498 000:051.275   Old FW that does not support reading DPIDR via DAP jobs
T0498 000:054.696   DPv0 detected
T0498 000:054.713   Scanning AP map to find all available APs
T0498 000:056.901   AP[1]: Stopped AP scan as end of AP map has been reached
T0498 000:056.915   AP[0]: AHB-AP (IDR: 0x24770011)
T0498 000:056.924   Iterating through AP map to find AHB-AP to use
T0498 000:060.671   AP[0]: Core found
T0498 000:060.682   AP[0]: AHB-AP ROM base: 0xE00FF000
T0498 000:062.699   CPUID register: 0x412FC230. Implementer code: 0x41 (ARM)
T0498 000:062.713   Found Cortex-M3 r2p0, Little endian.
T0498 000:163.501   -- Max. mem block: 0x00002328
T0498 000:163.526   CPU_ReadMem(4 bytes @ 0xE000EDF0)
T0498 000:164.127   CPU_WriteMem(4 bytes @ 0xE000EDF0)
T0498 000:164.671   CPU_ReadMem(4 bytes @ 0xE0002000)
T0498 000:165.284   FPUnit: 6 code (BP) slots and 2 literal slots
T0498 000:165.293   CPU_ReadMem(4 bytes @ 0xE000EDFC)
T0498 000:165.884   CPU_WriteMem(4 bytes @ 0xE000EDFC)
T0498 000:166.425   CPU_ReadMem(4 bytes @ 0xE0001000)
T0498 000:167.022   CPU_WriteMem(4 bytes @ 0xE0001000)
T0498 000:167.562   CPU_ReadMem(4 bytes @ 0xE000ED88)
T0498 000:168.218   CPU_WriteMem(4 bytes @ 0xE000ED88)
T0498 000:168.803   CPU_ReadMem(4 bytes @ 0xE000ED88)
T0498 000:169.431   CPU_WriteMem(4 bytes @ 0xE000ED88)
T0498 000:169.987   CoreSight components:
T0498 000:170.001   ROMTbl[0] @ E00FF000
T0498 000:170.010   CPU_ReadMem(64 bytes @ 0xE00FF000)
T0498 000:171.570   CPU_ReadMem(32 bytes @ 0xE000EFE0)
T0498 000:172.717   ROMTbl[0][0]: E000E000, CID: B105E00D, PID: 002BB000 SCS
T0498 000:172.726   CPU_ReadMem(32 bytes @ 0xE0001FE0)
T0498 000:173.771   ROMTbl[0][1]: E0001000, CID: B105E00D, PID: 002BB002 DWT
T0498 000:173.780   CPU_ReadMem(32 bytes @ 0xE0002FE0)
T0498 000:174.825   ROMTbl[0][2]: E0002000, CID: B105E00D, PID: 002BB003 FPB
T0498 000:174.834   CPU_ReadMem(32 bytes @ 0xE0000FE0)
T0498 000:175.873   ROMTbl[0][3]: E0000000, CID: B105E00D, PID: 002BB001 ITM
T0498 000:175.882   CPU_ReadMem(32 bytes @ 0xE0040FE0)
T0498 000:176.921   ROMTbl[0][4]: E0040000, CID: B105900D, PID: 002BB923 TPIU-Lite
T0498 000:177.307 - 130.242ms returns 0x2BA01477
T0498 000:177.321 JLINK_GetDLLVersion()
T0498 000:177.327 - 0.007ms returns 75203
T0498 000:177.336 JLINK_CORE_GetFound()
T0498 000:177.341 - 0.007ms returns 0x30000FF
T0498 000:177.351 JLINK_GetDebugInfo(0x100 = JLINKARM_ROM_TABLE_ADDR_INDEX)
T0498 000:177.358   Value=0xE00FF000
T0498 000:177.365 - 0.016ms returns 0
T0498 000:177.401 JLINK_GetDebugInfo(0x100 = JLINKARM_ROM_TABLE_ADDR_INDEX)
T0498 000:177.408   Value=0xE00FF000
T0498 000:177.414 - 0.015ms returns 0
T0498 000:177.420 JLINK_GetDebugInfo(0x101 = JLINKARM_DEBUG_INFO_ETM_ADDR_INDEX)
T0498 000:177.425   Value=0x00000000
T0498 000:177.432 - 0.014ms returns 0
T0498 000:177.438 JLINK_ReadMemEx(0xE0041FF0, 0x10 Bytes, Flags = 0x02000004)
T0498 000:177.457   CPU_ReadMem(16 bytes @ 0xE0041FF0)
T0498 000:178.255   Data:  00 00 00 00 00 00 00 00 00 00 00 00 00 00 00 00
T0498 000:178.267 - 0.831ms returns 16 (0x10)
T0498 000:178.275 JLINK_GetDebugInfo(0x102 = JLINKARM_DEBUG_INFO_MTB_ADDR_INDEX)
T0498 000:178.280   Value=0x00000000
T0498 000:178.287 - 0.014ms returns 0
T0498 000:178.293 JLINK_GetDebugInfo(0x103 = JLINKARM_DEBUG_INFO_TPIU_ADDR_INDEX)
T0498 000:178.298   Value=0xE0040000
T0498 000:178.304 - 0.014ms returns 0
T0498 000:178.310 JLINK_GetDebugInfo(0x104 = JLINKARM_DEBUG_INFO_ITM_ADDR_INDEX)
T0498 000:178.315   Value=0xE0000000
T0498 000:178.322 - 0.014ms returns 0
T0498 000:178.328 JLINK_GetDebugInfo(0x105 = JLINKARM_DEBUG_INFO_DWT_ADDR_INDEX)
T0498 000:178.333   Value=0xE0001000
T0498 000:178.339 - 0.013ms returns 0
T0498 000:178.345 JLINK_GetDebugInfo(0x106 = JLINKARM_DEBUG_INFO_FPB_ADDR_INDEX)
T0498 000:178.350   Value=0xE0002000
T0498 000:178.356 - 0.014ms returns 0
T0498 000:178.362 JLINK_GetDebugInfo(0x107 = JLINKARM_DEBUG_INFO_NVIC_ADDR_INDEX)
T0498 000:178.367   Value=0xE000E000
T0498 000:178.374 - 0.014ms returns 0
T0498 000:178.379 JLINK_GetDebugInfo(0x10C = JLINKARM_DEBUG_INFO_DBG_ADDR_INDEX)
T0498 000:178.384   Value=0xE000EDF0
T0498 000:178.391 - 0.013ms returns 0
T0498 000:178.396 JLINK_GetDebugInfo(0x01 = Unknown)
T0498 000:178.401   Value=0x00000000
T0498 000:178.408 - 0.013ms returns 0
T0498 000:178.413 JLINK_ReadMemU32(0xE000ED00, 0x1 Items)
T0498 000:178.422   CPU_ReadMem(4 bytes @ 0xE000ED00)
T0498 000:179.036   Data:  30 C2 2F 41
T0498 000:179.053   Debug reg: CPUID
T0498 000:179.060 - 0.649ms returns 1 (0x1)
T0498 000:179.069 JLINK_GetDebugInfo(0x10F = JLINKARM_DEBUG_INFO_HAS_CORTEX_M_SECURITY_EXT_INDEX)
T0498 000:179.076   Value=0x00000000
T0498 000:179.082 - 0.015ms returns 0
T0498 000:179.089 JLINK_HasError()
T0498 000:179.095 JLINK_SetResetType(JLINKARM_CM3_RESET_TYPE_NORMAL)
T0498 000:179.100 - 0.007ms returns JLINKARM_CM3_RESET_TYPE_NORMAL
T0498 000:179.106 JLINK_Reset()
T0498 000:179.124   CPU is running
T0498 000:179.133   CPU_WriteMem(4 bytes @ 0xE000EDF0)
T0498 000:179.692   CPU is running
T0498 000:179.707   CPU_WriteMem(4 bytes @ 0xE000EDFC)
T0498 000:180.265   Reset: Halt core after reset via DEMCR.VC_CORERESET.
T0498 000:180.699   Reset: Reset device via AIRCR.SYSRESETREQ.
T0498 000:180.709   CPU is running
T0498 000:180.721   CPU_WriteMem(4 bytes @ 0xE000ED0C)
T0498 000:232.028   CPU_ReadMem(4 bytes @ 0xE000EDF0)
T0498 000:232.693   CPU_ReadMem(4 bytes @ 0xE000EDF0)
T0498 000:233.297   CPU is running
T0498 000:233.307   CPU_WriteMem(4 bytes @ 0xE000EDF0)
T0498 000:233.845   CPU is running
T0498 000:233.854   CPU_WriteMem(4 bytes @ 0xE000EDFC)
T0498 000:239.697   CPU_ReadMem(4 bytes @ 0xE000EDF0)
T0498 000:247.267   CPU_WriteMem(4 bytes @ 0xE0002000)
T0498 000:247.827   CPU_ReadMem(4 bytes @ 0xE000EDFC)
T0498 000:248.430   CPU_ReadMem(4 bytes @ 0xE0001000)
T0498 000:249.042 - 69.940ms
T0498 000:249.079 JLINK_HasError()
T0498 000:249.087 JLINK_ReadReg(R15 (PC))
T0498 000:249.098 - 0.013ms returns 0x000000A6
T0498 000:249.104 JLINK_ReadReg(XPSR)
T0498 000:249.109 - 0.008ms returns 0x01000000
T0498 000:249.115 JLINK_Halt()
T0498 000:249.120 - 0.007ms returns 0x00
T0498 000:249.126 JLINK_ReadMemU32(0xE000EDF0, 0x1 Items)
T0498 000:249.134   CPU_ReadMem(4 bytes @ 0xE000EDF0)
T0498 000:249.731   Data:  03 00 03 00
T0498 000:249.740   Debug reg: DHCSR
T0498 000:249.747 - 0.623ms returns 1 (0x1)
T0498 000:249.756 JLINK_WriteU32_64(0xE000EDF0, 0xA05F0003)
T0498 000:249.761   Debug reg: DHCSR
T0498 000:249.927   CPU_WriteMem(4 bytes @ 0xE000EDF0)
T0498 000:250.478 - 0.727ms returns 0 (0x00000000)
T0498 000:250.488 JLINK_WriteU32_64(0xE000EDFC, 0x01000000)
T0498 000:250.493   Debug reg: DEMCR
T0498 000:250.503   CPU_WriteMem(4 bytes @ 0xE000EDFC)
T0498 000:251.056 - 0.573ms returns 0 (0x00000000)
T0498 000:251.081 JLINK_GetHWStatus(...)
T0498 000:251.190 - 0.114ms returns 0
T0498 000:251.211 JLINK_GetNumBPUnits(Type = 0xFFFFFF00)
T0498 000:251.217 - 0.008ms returns 0x06
T0498 000:251.223 JLINK_GetNumBPUnits(Type = 0xF0)
T0498 000:251.228 - 0.007ms returns 0x2000
T0498 000:251.233 JLINK_GetNumWPUnits()
T0498 000:251.238 - 0.007ms returns 4
T0498 000:251.251 JLINK_GetSpeed()
T0498 000:251.256 - 0.007ms returns 1000
T0498 000:251.266 JLINK_ReadMemU32(0xE000E004, 0x1 Items)
T0498 000:251.275   CPU_ReadMem(4 bytes @ 0xE000E004)
T0498 000:251.867   Data:  00 00 00 00
T0498 000:251.877 - 0.612ms returns 1 (0x1)
T0498 000:251.883 JLINK_ReadMemU32(0xE000E004, 0x1 Items)
T0498 000:251.891   CPU_ReadMem(4 bytes @ 0xE000E004)
T0498 000:252.487   Data:  00 00 00 00
T0498 000:252.497 - 0.615ms returns 1 (0x1)
T0498 000:252.503 JLINK_WriteMemEx(0xE0001000, 0x0000001C Bytes, Flags = 0x02000004)
T0498 000:252.509   Data:  01 00 00 00 00 00 00 00 00 00 00 00 00 00 00 00 ...
T0498 000:252.520   CPU_WriteMem(28 bytes @ 0xE0001000)
T0498 000:253.461 - 0.962ms returns 0x1C
T0498 000:253.477 JLINK_HasError()
T0498 000:253.484 JLINK_ReadReg(R15 (PC))
T0498 000:253.490 - 0.009ms returns 0x000000A6
T0498 000:253.496 JLINK_ReadReg(XPSR)
T0498 000:253.501 - 0.007ms returns 0x01000000
T0498 000:256.231 JLINK_ReadMemEx(0xE0001004, 0x4 Bytes, Flags = 0x02000000)
T0498 000:256.246   Data:  00 00 00 00
T0498 000:256.253   Debug reg: DWT_CYCCNT
T0498 000:256.260 - 0.031ms returns 4 (0x4)
T0498 000:317.468 JLINK_HasError()
T0498 000:317.483 JLINK_SetResetType(JLINKARM_CM3_RESET_TYPE_NORMAL)
T0498 000:317.489 - 0.008ms returns JLINKARM_CM3_RESET_TYPE_NORMAL
T0498 000:317.495 JLINK_Reset()
T0498 000:317.507   CPU_WriteMem(4 bytes @ 0xE000EDF0)
T0498 000:318.065   CPU_WriteMem(4 bytes @ 0xE000EDFC)
T0498 000:318.678   Reset: Halt core after reset via DEMCR.VC_CORERESET.
T0498 000:319.067   Reset: Reset device via AIRCR.SYSRESETREQ.
T0498 000:319.077   CPU_WriteMem(4 bytes @ 0xE000ED0C)
T0498 000:370.903   CPU_ReadMem(4 bytes @ 0xE000EDF0)
T0498 000:371.515   CPU_ReadMem(4 bytes @ 0xE000EDF0)
T0498 000:372.127   CPU_WriteMem(4 bytes @ 0xE000EDF0)
T0498 000:372.671   CPU_WriteMem(4 bytes @ 0xE000EDFC)
T0498 000:378.482   CPU_ReadMem(4 bytes @ 0xE000EDF0)
T0498 000:386.092   CPU_WriteMem(4 bytes @ 0xE0002000)
T0498 000:386.671   CPU_ReadMem(4 bytes @ 0xE000EDFC)
T0498 000:387.269   CPU_ReadMem(4 bytes @ 0xE0001000)
T0498 000:387.878 - 70.387ms
T0498 000:387.917 JLINK_HasError()
T0498 000:387.923 JLINK_ReadReg(R15 (PC))
T0498 000:387.935 - 0.014ms returns 0x000000A6
T0498 000:387.941 JLINK_ReadReg(XPSR)
T0498 000:387.945 - 0.006ms returns 0x01000000
T0498 000:388.242 JLINK_ReadMemEx(0x000000A6, 0x2 Bytes, Flags = 0x02000000)
T0498 000:388.253   CPU_ReadMem(2 bytes @ 0x000000A6)
T0498 000:388.849   Data:  98 48
T0498 000:388.857 - 0.617ms returns 2 (0x2)
T0498 000:388.863 JLINK_ReadMemEx(0x000000A8, 0x3C Bytes, Flags = 0x02000000)
T0498 000:388.870   CPU_ReadMem(60 bytes @ 0x000000A8)
T0498 000:390.352   Data:  98 4D 28 60 98 4F 3E 68 70 05 02 D3 C6 F3 02 31 ...
T0498 000:390.360 - 1.498ms returns 60 (0x3C)
T0498 000:390.365 JLINK_ReadMemEx(0x000000A8, 0x2 Bytes, Flags = 0x02000000)
T0498 000:390.372   CPU_ReadMem(2 bytes @ 0x000000A8)
T0498 000:390.964   Data:  98 4D
T0498 000:390.972 - 0.608ms returns 2 (0x2)
T0498 000:489.700 JLINK_ReadMemEx(0x40070000, 0x7C Bytes, Flags = 0x02000004)
T0498 000:489.731   CPU_ReadMem(124 bytes @ 0x40070000)
T0498 000:492.265   Data:  00 00 00 00 00 00 00 00 00 00 00 00 00 00 00 00 ...
T0498 000:492.275 - 2.577ms returns 124 (0x7C)
T0498 000:492.283 JLINK_ReadMemEx(0x4007007C, 0x4 Bytes, Flags = 0x02000004)
T0498 000:492.291   CPU_ReadMem(4 bytes @ 0x4007007C)
T0498 000:492.883   Data:  00 00 00 00
T0498 000:492.892 - 0.611ms returns 4 (0x4)
T0498 001:556.559 JLINK_ReadMemEx(0x000000A6, 0x2 Bytes, Flags = 0x02000000)
T0498 001:556.597   CPU_ReadMem(2 bytes @ 0x000000A6)
T0498 001:557.240   Data:  98 48
T0498 001:557.251 - 0.693ms returns 2 (0x2)
T0498 001:557.258 JLINK_ReadMemEx(0x000000A8, 0x3C Bytes, Flags = 0x02000000)
T0498 001:557.266   CPU_ReadMem(60 bytes @ 0x000000A8)
T0498 001:558.808   Data:  98 4D 28 60 98 4F 3E 68 70 05 02 D3 C6 F3 02 31 ...
T0498 001:558.816 - 1.560ms returns 60 (0x3C)
T0498 001:558.822 JLINK_ReadMemEx(0x000000A8, 0x2 Bytes, Flags = 0x02000000)
T0498 001:558.829   CPU_ReadMem(2 bytes @ 0x000000A8)
T0498 001:559.431   Data:  98 4D
T0498 001:559.438 - 0.618ms returns 2 (0x2)
T0498 001:777.314 JLINK_HasError()
T0498 001:777.330 JLINK_ReadReg(R0)
T0498 001:777.904 - 0.577ms returns 0x00000000
T0498 001:777.912 JLINK_ReadReg(R1)
T0498 001:777.917 - 0.007ms returns 0x00000000
T0498 001:777.922 JLINK_ReadReg(R2)
T0498 001:777.927 - 0.006ms returns 0x00000000
T0498 001:777.932 JLINK_ReadReg(R3)
T0498 001:777.936 - 0.006ms returns 0x00000000
T0498 001:777.941 JLINK_ReadReg(R4)
T0498 001:777.946 - 0.006ms returns 0x00000000
T0498 001:777.951 JLINK_ReadReg(R5)
T0498 001:777.955 - 0.006ms returns 0x00000000
T0498 001:777.960 JLINK_ReadReg(R6)
T0498 001:777.965 - 0.006ms returns 0x00000000
T0498 001:777.970 JLINK_ReadReg(R7)
T0498 001:777.974 - 0.006ms returns 0x00000000
T0498 001:777.979 JLINK_ReadReg(R8)
T0498 001:777.989 - 0.011ms returns 0x00000000
T0498 001:777.994 JLINK_ReadReg(R9)
T0498 001:777.998 - 0.006ms returns 0x00000000
T0498 001:778.003 JLINK_ReadReg(R10)
T0498 001:778.008 - 0.006ms returns 0x00000000
T0498 001:778.013 JLINK_ReadReg(R11)
T0498 001:778.017 - 0.006ms returns 0x00000000
T0498 001:778.022 JLINK_ReadReg(R12)
T0498 001:778.027 - 0.006ms returns 0x00000000
T0498 001:778.032 JLINK_ReadReg(R13 (SP))
T0498 001:778.036 - 0.006ms returns 0x20008000
T0498 001:778.041 JLINK_ReadReg(R14)
T0498 001:778.046 - 0.006ms returns 0xFFFFFFFF
T0498 001:778.051 JLINK_ReadReg(R15 (PC))
T0498 001:778.056 - 0.006ms returns 0x000000A6
T0498 001:778.061 JLINK_ReadReg(XPSR)
T0498 001:778.065 - 0.006ms returns 0x01000000
T0498 001:778.070 JLINK_ReadReg(MSP)
T0498 001:778.074 - 0.006ms returns 0x20008000
T0498 001:778.079 JLINK_ReadReg(PSP)
T0498 001:778.084 - 0.006ms returns 0x00000000
T0498 001:778.089 JLINK_ReadReg(CFBP)
T0498 001:778.093 - 0.006ms returns 0x00000000
T0498 001:803.611 JLINK_ReadMemEx(0x20000238, 0x4 Bytes, Flags = 0x02000000)
T0498 001:803.631   CPU_ReadMem(4 bytes @ 0x20000238)
T0498 001:804.249   Data:  0B D0 51 EA
T0498 001:804.258 - 0.649ms returns 4 (0x4)
T0498 001:804.317 JLINK_ReadMemEx(0x20000238, 0x4 Bytes, Flags = 0x02000000)
T0498 001:804.325   CPU_ReadMem(4 bytes @ 0x20000238)
T0498 001:804.961   Data:  0B D0 51 EA
T0498 001:804.969 - 0.653ms returns 4 (0x4)
T0498 001:804.986 JLINK_ReadMemEx(0x20000238, 0x4 Bytes, Flags = 0x02000000)
T0498 001:804.994   CPU_ReadMem(4 bytes @ 0x20000238)
T0498 001:805.665   Data:  0B D0 51 EA
T0498 001:805.672 - 0.688ms returns 4 (0x4)
T0498 001:808.389 JLINK_ReadMemEx(0x2000023C, 0x4 Bytes, Flags = 0x02000000)
T0498 001:808.403   CPU_ReadMem(4 bytes @ 0x2000023C)
T0498 001:809.002   Data:  C3 51 01 EB
T0498 001:809.011 - 0.624ms returns 4 (0x4)
T0498 001:809.033 JLINK_ReadMemEx(0x2000023C, 0x4 Bytes, Flags = 0x02000000)
T0498 001:809.041   CPU_ReadMem(4 bytes @ 0x2000023C)
T0498 001:809.687   Data:  C3 51 01 EB
T0498 001:809.695 - 0.664ms returns 4 (0x4)
T0498 001:809.711 JLINK_ReadMemEx(0x2000023C, 0x4 Bytes, Flags = 0x02000000)
T0498 001:809.718   CPU_ReadMem(4 bytes @ 0x2000023C)
T0498 001:810.383   Data:  C3 51 01 EB
T0498 001:810.392 - 0.683ms returns 4 (0x4)
T3608 001:845.399 JLINK_ReadMemEx(0x000000A6, 0x2 Bytes, Flags = 0x02000000)
T3608 001:845.422   CPU_ReadMem(2 bytes @ 0x000000A6)
T3608 001:846.036   Data:  98 48
T3608 001:846.059 - 0.667ms returns 2 (0x2)
T3608 001:846.068 JLINK_HasError()
T3608 001:846.074 JLINK_SetBPEx(Addr = 0x08002420, Type = 0xFFFFFFF2)
T3608 001:846.084 - 0.012ms returns 0x00000001
T3608 001:846.090 JLINK_HasError()
T3608 001:846.095 JLINK_SetBPEx(Addr = 0x08001F22, Type = 0xFFFFFFF2)
T3608 001:846.100 - 0.010ms returns 0x00000002
T3608 001:846.108 JLINK_HasError()
T3608 001:846.113 JLINK_HasError()
T3608 001:846.119 JLINK_Go()
T3608 001:846.127   CPU_WriteMem(4 bytes @ 0xE0002000)
T3608 001:846.709   CPU_WriteMem(4 bytes @ 0xE0002000)
T3608 001:847.273   CPU_ReadMem(4 bytes @ 0xE0001000)
T3608 001:847.874   CPU_WriteMem(4 bytes @ 0xE0002008)
T3608 001:847.883   CPU_WriteMem(4 bytes @ 0xE000200C)
T3608 001:847.890   CPU_WriteMem(4 bytes @ 0xE0002010)
T3608 001:847.896   CPU_WriteMem(4 bytes @ 0xE0002014)
T3608 001:847.903   CPU_WriteMem(4 bytes @ 0xE0002018)
T3608 001:847.910   CPU_WriteMem(4 bytes @ 0xE000201C)
T3608 001:850.741   CPU_WriteMem(4 bytes @ 0xE0001004)
T3608 001:852.108 - 5.995ms
T3608 001:952.233 JLINK_HasError()
T3608 001:952.255 JLINK_IsHalted()
T3608 001:959.248 - 6.999ms returns TRUE
T3608 001:959.259 JLINK_HasError()
T3608 001:959.265 JLINK_Halt()
T3608 001:959.270 - 0.007ms returns 0x00
T3608 001:959.276 JLINK_IsHalted()
T3608 001:959.281 - 0.007ms returns TRUE
T3608 001:959.287 JLINK_IsHalted()
T3608 001:959.291 - 0.007ms returns TRUE
T3608 001:959.297 JLINK_IsHalted()
T3608 001:959.302 - 0.007ms returns TRUE
T3608 001:959.308 JLINK_HasError()
T3608 001:959.314 JLINK_ReadReg(R15 (PC))
T3608 001:959.322 - 0.010ms returns 0x08002420
T3608 001:959.328 JLINK_ReadReg(XPSR)
T3608 001:959.333 - 0.007ms returns 0x21000000
T3608 001:959.341 JLINK_HasError()
T3608 001:959.347 JLINK_ClrBPEx(BPHandle = 0x00000001)
T3608 001:959.352 - 0.008ms returns 0x00
T3608 001:959.358 JLINK_HasError()
T3608 001:959.364 JLINK_ClrBPEx(BPHandle = 0x00000002)
T3608 001:959.369 - 0.007ms returns 0x00
T3608 001:959.375 JLINK_HasError()
T3608 001:959.380 JLINK_HasError()
T3608 001:959.386 JLINK_ReadMemU32(0xE000ED30, 0x1 Items)
T3608 001:959.396   CPU_ReadMem(4 bytes @ 0xE000ED30)
T3608 001:960.006   Data:  0B 00 00 00
T3608 001:960.015 - 0.631ms returns 1 (0x1)
T3608 001:960.022 JLINK_ReadMemU32(0xE0001028, 0x1 Items)
T3608 001:960.029   CPU_ReadMem(4 bytes @ 0xE0001028)
T3608 001:960.692   Data:  00 00 00 00
T3608 001:960.707   Debug reg: DWT_FUNC[0]
T3608 001:960.714 - 0.694ms returns 1 (0x1)
T3608 001:960.720 JLINK_ReadMemU32(0xE0001038, 0x1 Items)
T3608 001:960.728   CPU_ReadMem(4 bytes @ 0xE0001038)
T3608 001:961.329   Data:  00 02 00 00
T3608 001:961.338   Debug reg: DWT_FUNC[1]
T3608 001:961.345 - 0.626ms returns 1 (0x1)
T3608 001:961.351 JLINK_ReadMemU32(0xE0001048, 0x1 Items)
T3608 001:961.358   CPU_ReadMem(4 bytes @ 0xE0001048)
T3608 001:961.952   Data:  00 00 00 00
T3608 001:961.961   Debug reg: DWT_FUNC[2]
T3608 001:961.972 - 0.625ms returns 1 (0x1)
T3608 001:961.980 JLINK_ReadMemU32(0xE0001058, 0x1 Items)
T3608 001:961.988   CPU_ReadMem(4 bytes @ 0xE0001058)
T3608 001:962.665   Data:  00 00 00 00
T3608 001:962.674   Debug reg: DWT_FUNC[3]
T3608 001:962.681 - 0.703ms returns 1 (0x1)
T3608 001:962.723 JLINK_HasError()
T3608 001:962.730 JLINK_ReadReg(R0)
T3608 001:962.736 - 0.008ms returns 0x20000248
T3608 001:962.742 JLINK_ReadReg(R1)
T3608 001:962.747 - 0.007ms returns 0x20000448
T3608 001:962.753 JLINK_ReadReg(R2)
T3608 001:962.758 - 0.007ms returns 0x20000448
T3608 001:962.764 JLINK_ReadReg(R3)
T3608 001:962.769 - 0.007ms returns 0x20000448
T3608 001:962.775 JLINK_ReadReg(R4)
T3608 001:962.780 - 0.007ms returns 0x00000000
T3608 001:962.786 JLINK_ReadReg(R5)
T3608 001:962.791 - 0.007ms returns 0x20000060
T3608 001:962.797 JLINK_ReadReg(R6)
T3608 001:962.802 - 0.011ms returns 0x00000000
T3608 001:962.812 JLINK_ReadReg(R7)
T3608 001:962.817 - 0.007ms returns 0x00000000
T3608 001:962.823 JLINK_ReadReg(R8)
T3608 001:962.828 - 0.007ms returns 0x00000000
T3608 001:962.834 JLINK_ReadReg(R9)
T3608 001:962.839 - 0.007ms returns 0x00000000
T3608 001:962.845 JLINK_ReadReg(R10)
T3608 001:962.850 - 0.007ms returns 0x0800339C
T3608 001:962.856 JLINK_ReadReg(R11)
T3608 001:962.861 - 0.007ms returns 0x00000000
T3608 001:962.867 JLINK_ReadReg(R12)
T3608 001:962.872 - 0.007ms returns 0x200000A0
T3608 001:962.878 JLINK_ReadReg(R13 (SP))
T3608 001:962.883 - 0.007ms returns 0x20000848
T3608 001:962.889 JLINK_ReadReg(R14)
T3608 001:962.894 - 0.007ms returns 0x0800014B
T3608 001:962.899 JLINK_ReadReg(R15 (PC))
T3608 001:962.905 - 0.007ms returns 0x08002420
T3608 001:962.910 JLINK_ReadReg(XPSR)
T3608 001:962.916 - 0.007ms returns 0x21000000
T3608 001:962.922 JLINK_ReadReg(MSP)
T3608 001:962.927 - 0.007ms returns 0x20000848
T3608 001:962.932 JLINK_ReadReg(PSP)
T3608 001:962.937 - 0.007ms returns 0x00000000
T3608 001:962.943 JLINK_ReadReg(CFBP)
T3608 001:962.948 - 0.007ms returns 0x00000000
T0498 001:963.730 JLINK_HasError()
T0498 001:963.747 JLINK_ReadMemU32(0xE0001004, 0x1 Items)
T0498 001:963.761   CPU_ReadMem(4 bytes @ 0xE0001004)
T0498 001:964.388   Data:  CF 06 00 00
T0498 001:964.401   Debug reg: DWT_CYCCNT
T0498 001:964.408 - 0.663ms returns 1 (0x1)
T0498 001:964.562 JLINK_ReadMemEx(0x20000238, 0x4 Bytes, Flags = 0x02000000)
T0498 001:964.574   CPU_ReadMem(4 bytes @ 0x20000238)
T0498 001:965.215   Data:  00 00 00 00
T0498 001:965.224 - 0.664ms returns 4 (0x4)
T0498 001:965.472 JLINK_ReadMemEx(0x2000023C, 0x4 Bytes, Flags = 0x02000000)
T0498 001:965.485   CPU_ReadMem(4 bytes @ 0x2000023C)
T0498 001:966.081   Data:  00 00 00 00
T0498 001:966.090 - 0.621ms returns 4 (0x4)
T0498 001:966.492 JLINK_ReadMemEx(0x40070000, 0x7C Bytes, Flags = 0x02000004)
T0498 001:966.507   CPU_ReadMem(124 bytes @ 0x40070000)
T0498 001:969.009   Data:  00 00 00 00 00 00 00 00 00 00 00 00 00 00 00 00 ...
T0498 001:969.019 - 2.529ms returns 124 (0x7C)
T0498 001:969.028 JLINK_ReadMemEx(0x4007007C, 0x4 Bytes, Flags = 0x02000004)
T0498 001:969.036   CPU_ReadMem(4 bytes @ 0x4007007C)
T0498 001:969.686   Data:  00 00 00 00
T0498 001:969.693 - 0.668ms returns 4 (0x4)
T0498 001:972.254 JLINK_ReadMemEx(0x08002420, 0x3C Bytes, Flags = 0x02000000)
T0498 001:972.270   CPU_ReadMem(128 bytes @ 0x08002400)
T0498 001:974.882    -- Updating DA cache (128 bytes @ 0x08002400)
T0498 001:974.896    -- Read from DA cache (60 bytes @ 0x08002420)
T0498 001:974.904   Data:  80 B5 82 B0 00 20 01 90 FF F7 A0 FE FF F7 C6 FF ...
T0498 001:974.911 - 2.660ms returns 60 (0x3C)
T0498 001:974.919 JLINK_ReadMemEx(0x08002420, 0x2 Bytes, Flags = 0x02000000)
T0498 001:974.927    -- Read from DA cache (2 bytes @ 0x08002420)
T0498 001:974.934   Data:  80 B5
T0498 001:974.941 - 0.024ms returns 2 (0x2)
T0498 001:974.986 JLINK_ReadMemEx(0x08002422, 0x2 Bytes, Flags = 0x02000000)
T0498 001:974.993    -- Read from DA cache (2 bytes @ 0x08002422)
T0498 001:975.000   Data:  82 B0
T0498 001:975.006 - 0.022ms returns 2 (0x2)
T3608 002:707.768 JLINK_ReadMemEx(0x08002420, 0x2 Bytes, Flags = 0x02000000)
T3608 002:707.808    -- Read from DA cache (2 bytes @ 0x08002420)
T3608 002:707.816   Data:  80 B5
T3608 002:707.824 - 0.058ms returns 2 (0x2)
T3608 002:707.830 JLINK_HasError()
T3608 002:707.837 JLINK_SetBPEx(Addr = 0x08001F22, Type = 0xFFFFFFF2)
T3608 002:707.845 - 0.010ms returns 0x00000003
T3608 002:707.852 JLINK_HasError()
T3608 002:707.857 JLINK_HasError()
T3608 002:707.863 JLINK_Go()
T3608 002:708.479   CPU_WriteMem(4 bytes @ 0xE0002000)
T3608 002:709.084   CPU_ReadMem(4 bytes @ 0xE0001000)
T3608 002:709.728   CPU_WriteMem(4 bytes @ 0xE0002008)
T3608 002:709.741   CPU_WriteMem(4 bytes @ 0xE000200C)
T3608 002:711.682 - 3.824ms
T3608 002:811.925 JLINK_HasError()
T3608 002:811.937 JLINK_IsHalted()
T3608 002:816.762 - 4.841ms returns TRUE
T3608 002:816.785 JLINK_HasError()
T3608 002:816.792 JLINK_Halt()
T3608 002:816.797 - 0.007ms returns 0x00
T3608 002:816.803 JLINK_IsHalted()
T3608 002:816.808 - 0.007ms returns TRUE
T3608 002:816.813 JLINK_IsHalted()
T3608 002:816.818 - 0.007ms returns TRUE
T3608 002:816.824 JLINK_IsHalted()
T3608 002:816.828 - 0.007ms returns TRUE
T3608 002:816.835 JLINK_HasError()
T3608 002:816.841 JLINK_ReadReg(R15 (PC))
T3608 002:816.848 - 0.010ms returns 0x08001F22
T3608 002:816.854 JLINK_ReadReg(XPSR)
T3608 002:816.860 - 0.008ms returns 0x2100001F
T3608 002:816.869 JLINK_HasError()
T3608 002:816.875 JLINK_ClrBPEx(BPHandle = 0x00000003)
T3608 002:816.881 - 0.008ms returns 0x00
T3608 002:816.886 JLINK_HasError()
T3608 002:816.892 JLINK_HasError()
T3608 002:816.897 JLINK_ReadMemU32(0xE000ED30, 0x1 Items)
T3608 002:816.907   CPU_ReadMem(4 bytes @ 0xE000ED30)
T3608 002:817.519   Data:  0B 00 00 00
T3608 002:817.528 - 0.633ms returns 1 (0x1)
T3608 002:817.535 JLINK_ReadMemU32(0xE0001028, 0x1 Items)
T3608 002:817.542   CPU_ReadMem(4 bytes @ 0xE0001028)
T3608 002:818.214   Data:  00 00 00 00
T3608 002:818.224   Debug reg: DWT_FUNC[0]
T3608 002:818.231 - 0.698ms returns 1 (0x1)
T3608 002:818.237 JLINK_ReadMemU32(0xE0001038, 0x1 Items)
T3608 002:818.244   CPU_ReadMem(4 bytes @ 0xE0001038)
T3608 002:818.838   Data:  00 02 00 00
T3608 002:818.847   Debug reg: DWT_FUNC[1]
T3608 002:818.853 - 0.618ms returns 1 (0x1)
T3608 002:818.860 JLINK_ReadMemU32(0xE0001048, 0x1 Items)
T3608 002:818.867   CPU_ReadMem(4 bytes @ 0xE0001048)
T3608 002:819.467   Data:  00 00 00 00
T3608 002:819.475   Debug reg: DWT_FUNC[2]
T3608 002:819.482 - 0.625ms returns 1 (0x1)
T3608 002:819.489 JLINK_ReadMemU32(0xE0001058, 0x1 Items)
T3608 002:819.496   CPU_ReadMem(4 bytes @ 0xE0001058)
T3608 002:820.090   Data:  00 00 00 00
T3608 002:820.098   Debug reg: DWT_FUNC[3]
T3608 002:820.105 - 0.618ms returns 1 (0x1)
T3608 002:820.145 JLINK_HasError()
T3608 002:820.152 JLINK_ReadReg(R0)
T3608 002:820.158 - 0.009ms returns 0x00015AF2
T3608 002:820.164 JLINK_ReadReg(R1)
T3608 002:820.169 - 0.007ms returns 0x00FEA50D
T3608 002:820.175 JLINK_ReadReg(R2)
T3608 002:820.180 - 0.007ms returns 0xFFFEAC00
T3608 002:820.186 JLINK_ReadReg(R3)
T3608 002:820.191 - 0.007ms returns 0x00000008
T3608 002:820.197 JLINK_ReadReg(R4)
T3608 002:820.202 - 0.007ms returns 0x00000000
T3608 002:820.208 JLINK_ReadReg(R5)
T3608 002:820.213 - 0.007ms returns 0x20000060
T3608 002:820.219 JLINK_ReadReg(R6)
T3608 002:820.224 - 0.007ms returns 0x00000000
T3608 002:820.230 JLINK_ReadReg(R7)
T3608 002:820.235 - 0.007ms returns 0x00000000
T3608 002:820.241 JLINK_ReadReg(R8)
T3608 002:820.246 - 0.007ms returns 0x00000000
T3608 002:820.252 JLINK_ReadReg(R9)
T3608 002:820.257 - 0.007ms returns 0x00000000
T3608 002:820.263 JLINK_ReadReg(R10)
T3608 002:820.268 - 0.007ms returns 0x0800339C
T3608 002:820.274 JLINK_ReadReg(R11)
T3608 002:820.279 - 0.007ms returns 0x00000000
T3608 002:820.285 JLINK_ReadReg(R12)
T3608 002:820.290 - 0.007ms returns 0x00000018
T3608 002:820.295 JLINK_ReadReg(R13 (SP))
T3608 002:820.301 - 0.007ms returns 0x200007B8
T3608 002:820.306 JLINK_ReadReg(R14)
T3608 002:820.312 - 0.007ms returns 0x08001E8F
T3608 002:820.321 JLINK_ReadReg(R15 (PC))
T3608 002:820.329 - 0.009ms returns 0x08001F22
T3608 002:820.335 JLINK_ReadReg(XPSR)
T3608 002:820.340 - 0.007ms returns 0x2100001F
T3608 002:820.346 JLINK_ReadReg(MSP)
T3608 002:820.351 - 0.007ms returns 0x200007B8
T3608 002:820.360 JLINK_ReadReg(PSP)
T3608 002:820.365 - 0.007ms returns 0x00000000
T3608 002:820.371 JLINK_ReadReg(CFBP)
T3608 002:820.376 - 0.007ms returns 0x00000000
T0498 002:820.507 JLINK_ReadMemEx(0x2000080C, 0x4 Bytes, Flags = 0x02000000)
T0498 002:820.526   CPU_ReadMem(4 bytes @ 0x2000080C)
T0498 002:821.150   Data:  83 08 00 08
T0498 002:821.161 - 0.656ms returns 4 (0x4)
T0498 002:821.309 JLINK_ReadMemEx(0x20000808, 0x4 Bytes, Flags = 0x02000000)
T0498 002:821.321   CPU_ReadMem(4 bytes @ 0x20000808)
T0498 002:821.922   Data:  00 00 00 00
T0498 002:821.932 - 0.625ms returns 4 (0x4)
T0498 002:821.939 JLINK_ReadMemEx(0x2000080C, 0x4 Bytes, Flags = 0x02000000)
T0498 002:821.947   CPU_ReadMem(4 bytes @ 0x2000080C)
T0498 002:822.549   Data:  83 08 00 08
T0498 002:822.560 - 0.622ms returns 4 (0x4)
T0498 002:822.568 JLINK_ReadMemEx(0x20000814, 0x4 Bytes, Flags = 0x02000000)
T0498 002:822.576   CPU_ReadMem(4 bytes @ 0x20000814)
T0498 002:823.205   Data:  F9 FF FF FF
T0498 002:823.214 - 0.648ms returns 4 (0x4)
T0498 002:823.222 JLINK_ReadMemEx(0x20000830, 0x4 Bytes, Flags = 0x02000000)
T0498 002:823.229   CPU_ReadMem(4 bytes @ 0x20000830)
T0498 002:823.823   Data:  4A 24 00 08
T0498 002:823.831 - 0.611ms returns 4 (0x4)
T0498 002:823.837 JLINK_ReadMemEx(0x20000834, 0x4 Bytes, Flags = 0x02000000)
T0498 002:823.843   CPU_ReadMem(4 bytes @ 0x20000834)
T0498 002:824.439   Data:  00 00 00 41
T0498 002:824.447 - 0.611ms returns 4 (0x4)
T0498 002:824.453 JLINK_ReadMemEx(0x2000082C, 0x4 Bytes, Flags = 0x02000000)
T0498 002:824.459   CPU_ReadMem(4 bytes @ 0x2000082C)
T0498 002:825.044   Data:  AD 23 00 08
T0498 002:825.051 - 0.600ms returns 4 (0x4)
T0498 002:825.057 JLINK_ReadMemEx(0xE000ED28, 0x4 Bytes, Flags = 0x02000000)
T0498 002:825.064   CPU_ReadMem(4 bytes @ 0xE000ED28)
T0498 002:825.684   Data:  00 00 00 00
T0498 002:825.692 - 0.636ms returns 4 (0x4)
T0498 002:825.701 JLINK_ReadMemEx(0x20000810, 0x4 Bytes, Flags = 0x02000000)
T0498 002:825.708   CPU_ReadMem(4 bytes @ 0x20000810)
T0498 002:826.305   Data:  00 00 00 00
T0498 002:826.313 - 0.613ms returns 4 (0x4)
T0498 002:826.318 JLINK_ReadMemEx(0x20000814, 0x4 Bytes, Flags = 0x02000000)
T0498 002:826.325   CPU_ReadMem(4 bytes @ 0x20000814)
T0498 002:826.929   Data:  F9 FF FF FF
T0498 002:826.937 - 0.620ms returns 4 (0x4)
T0498 002:826.944 JLINK_ReadMemEx(0x20000844, 0x4 Bytes, Flags = 0x02000000)
T0498 002:826.950   CPU_ReadMem(4 bytes @ 0x20000844)
T0498 002:827.557   Data:  4B 01 00 08
T0498 002:827.564 - 0.622ms returns 4 (0x4)
T0498 002:827.589 JLINK_ReadMemEx(0x20000806, 0x2 Bytes, Flags = 0x02000000)
T0498 002:827.596   CPU_ReadMem(2 bytes @ 0x20000806)
T0498 002:828.197   Data:  D0 07
T0498 002:828.206 - 0.618ms returns 2 (0x2)
T0498 002:828.214 JLINK_ReadMemEx(0x20000804, 0x2 Bytes, Flags = 0x02000000)
T0498 002:828.222   CPU_ReadMem(2 bytes @ 0x20000804)
T0498 002:828.809   Data:  4A 01
T0498 002:828.817 - 0.605ms returns 2 (0x2)
T0498 002:828.823 JLINK_ReadMemEx(0x20000800, 0x4 Bytes, Flags = 0x02000000)
T0498 002:828.830   CPU_ReadMem(4 bytes @ 0x20000800)
T0498 002:829.426   Data:  F2 5A 01 00
T0498 002:829.433 - 0.612ms returns 4 (0x4)
T0498 002:830.061 JLINK_ReadMemEx(0x20000806, 0x2 Bytes, Flags = 0x02000000)
T0498 002:830.074   CPU_ReadMem(2 bytes @ 0x20000806)
T0498 002:830.685   Data:  D0 07
T0498 002:830.693 - 0.634ms returns 2 (0x2)
T0498 002:830.700 JLINK_ReadMemEx(0x20000804, 0x2 Bytes, Flags = 0x02000000)
T0498 002:830.707   CPU_ReadMem(2 bytes @ 0x20000804)
T0498 002:831.305   Data:  4A 01
T0498 002:831.312 - 0.614ms returns 2 (0x2)
T0498 002:831.319 JLINK_ReadMemEx(0x20000800, 0x4 Bytes, Flags = 0x02000000)
T0498 002:831.326   CPU_ReadMem(4 bytes @ 0x20000800)
T0498 002:831.912   Data:  F2 5A 01 00
T0498 002:831.920 - 0.603ms returns 4 (0x4)
T0498 002:831.973 JLINK_HasError()
T0498 002:831.981 JLINK_ReadMemU32(0xE0001004, 0x1 Items)
T0498 002:831.988   CPU_ReadMem(4 bytes @ 0xE0001004)
T0498 002:832.580   Data:  D4 CD 01 00
T0498 002:832.588   Debug reg: DWT_CYCCNT
T0498 002:832.594 - 0.615ms returns 1 (0x1)
T0498 002:832.721 JLINK_ReadMemEx(0x20000238, 0x4 Bytes, Flags = 0x02000000)
T0498 002:832.730   CPU_ReadMem(4 bytes @ 0x20000238)
T0498 002:833.322   Data:  EB FE FF 00
T0498 002:833.330 - 0.610ms returns 4 (0x4)
T0498 002:833.685 JLINK_ReadMemEx(0x2000023C, 0x4 Bytes, Flags = 0x02000000)
T0498 002:833.697   CPU_ReadMem(4 bytes @ 0x2000023C)
T0498 002:834.292   Data:  AC FE FF 00
T0498 002:834.300 - 0.617ms returns 4 (0x4)
T0498 002:834.603 JLINK_ReadMemEx(0x20000800, 0x4 Bytes, Flags = 0x02000000)
T0498 002:834.616   CPU_ReadMem(4 bytes @ 0x20000800)
T0498 002:835.219   Data:  F2 5A 01 00
T0498 002:835.227 - 0.625ms returns 4 (0x4)
T0498 002:835.249 JLINK_ReadMemEx(0x20000800, 0x4 Bytes, Flags = 0x02000000)
T0498 002:835.256   CPU_ReadMem(4 bytes @ 0x20000800)
T0498 002:835.848   Data:  F2 5A 01 00
T0498 002:835.857 - 0.610ms returns 4 (0x4)
T0498 002:838.940 JLINK_ReadMemEx(0x40070000, 0x7C Bytes, Flags = 0x02000004)
T0498 002:838.954   CPU_ReadMem(124 bytes @ 0x40070000)
T0498 002:841.469   Data:  26 00 00 00 4F 00 00 00 63 00 00 00 03 00 00 00 ...
T0498 002:841.478 - 2.540ms returns 124 (0x7C)
T0498 002:841.487 JLINK_ReadMemEx(0x4007007C, 0x4 Bytes, Flags = 0x02000004)
T0498 002:841.495   CPU_ReadMem(4 bytes @ 0x4007007C)
T0498 002:842.090   Data:  00 00 00 00
T0498 002:842.099 - 0.614ms returns 4 (0x4)
T0498 002:888.016 JLINK_ReadMemEx(0x08001F22, 0x2 Bytes, Flags = 0x02000000)
T0498 002:888.034   CPU_ReadMem(64 bytes @ 0x08001F00)
T0498 002:889.676    -- Updating DA cache (64 bytes @ 0x08001F00)
T0498 002:889.689    -- Read from DA cache (2 bytes @ 0x08001F22)
T0498 002:889.696   Data:  00 F0
T0498 002:889.703 - 1.688ms returns 2 (0x2)
T0498 002:889.710 JLINK_ReadMemEx(0x08001F24, 0x3C Bytes, Flags = 0x02000000)
T0498 002:889.719   CPU_ReadMem(64 bytes @ 0x08001F40)
T0498 002:891.285    -- Updating DA cache (64 bytes @ 0x08001F40)
T0498 002:891.293    -- Read from DA cache (60 bytes @ 0x08001F24)
T0498 002:891.300   Data:  29 FB 00 99 01 98 09 68 40 1A 12 90 00 F0 30 FB ...
T0498 002:891.306 - 1.597ms returns 60 (0x3C)
T0498 002:891.312 JLINK_ReadMemEx(0x08001F24, 0x2 Bytes, Flags = 0x02000000)
T0498 002:891.318    -- Read from DA cache (2 bytes @ 0x08001F24)
T0498 002:891.324   Data:  29 FB
T0498 002:891.330 - 0.020ms returns 2 (0x2)
T0498 009:493.816 JLINK_ReadMemEx(0x20000238, 0x4 Bytes, Flags = 0x02000000)
T0498 009:493.851   CPU_ReadMem(4 bytes @ 0x20000238)
T0498 009:494.519   Data:  EB FE FF 00
T0498 009:494.544 - 0.730ms returns 4 (0x4)
T0498 009:494.827 JLINK_ReadMemEx(0x2000023C, 0x4 Bytes, Flags = 0x02000000)
T0498 009:494.847   CPU_ReadMem(4 bytes @ 0x2000023C)
T0498 009:495.468   Data:  AC FE FF 00
T0498 009:495.477 - 0.652ms returns 4 (0x4)
T0498 009:495.675 JLINK_ReadMemEx(0x20000800, 0x4 Bytes, Flags = 0x02000000)
T0498 009:495.688   CPU_ReadMem(4 bytes @ 0x20000800)
T0498 009:496.294   Data:  F2 5A 01 00
T0498 009:496.303 - 0.631ms returns 4 (0x4)
T3608 011:595.838 JLINK_ReadMemEx(0x08001F22, 0x2 Bytes, Flags = 0x02000000)
T3608 011:595.871    -- Read from DA cache (2 bytes @ 0x08001F22)
T3608 011:595.880   Data:  00 F0
T3608 011:595.887 - 0.051ms returns 2 (0x2)
T3608 011:595.894 JLINK_HasError()
T3608 011:595.901 JLINK_Step()
T3608 011:596.500    -- Read from DA cache (2 bytes @ 0x08001F22)
T3608 011:596.527   CPU_ReadMem(4 bytes @ 0xE000ED18)
T3608 011:597.204   CPU_WriteMem(4 bytes @ 0xE000ED18)
T3608 011:597.781   CPU_ReadMem(4 bytes @ 0xE000ED18)
T3608 011:598.413   CPU_WriteMem(4 bytes @ 0xE000ED18)
T3608 011:599.007   -- Not simulated
T3608 011:599.027   CPU_WriteMem(4 bytes @ 0xE0002008)
T3608 011:605.964 - 10.071ms returns 0
T3608 011:605.984 JLINK_HasError()
T3608 011:605.992 JLINK_ReadReg(R15 (PC))
T3608 011:606.000 - 0.010ms returns 0x08002578
T3608 011:606.081 JLINK_ReadReg(XPSR)
T3608 011:606.089 - 0.011ms returns 0x2100001F
T3608 011:606.124 JLINK_HasError()
T3608 011:606.132 JLINK_SetBPEx(Addr = 0x08001F22, Type = 0xFFFFFFF2)
T3608 011:606.139 - 0.009ms returns 0x00000004
T3608 011:606.145 JLINK_HasError()
T3608 011:606.150 JLINK_HasError()
T3608 011:606.156 JLINK_Go()
T3608 011:606.165   CPU_WriteMem(4 bytes @ 0xE0002000)
T3608 011:606.720   CPU_ReadMem(4 bytes @ 0xE0001000)
T3608 011:607.328   CPU_WriteMem(4 bytes @ 0xE0002008)
T3608 011:608.694 - 2.542ms
T3608 011:709.491 JLINK_HasError()
T3608 011:709.507 JLINK_IsHalted()
T3608 011:714.269 - 4.769ms returns TRUE
T3608 011:714.282 JLINK_HasError()
T3608 011:714.288 JLINK_Halt()
T3608 011:714.293 - 0.007ms returns 0x00
T3608 011:714.299 JLINK_IsHalted()
T3608 011:714.304 - 0.007ms returns TRUE
T3608 011:714.310 JLINK_IsHalted()
T3608 011:714.315 - 0.007ms returns TRUE
T3608 011:714.321 JLINK_IsHalted()
T3608 011:714.326 - 0.007ms returns TRUE
T3608 011:714.332 JLINK_HasError()
T3608 011:714.338 JLINK_ReadReg(R15 (PC))
T3608 011:714.344 - 0.009ms returns 0x08001F22
T3608 011:714.350 JLINK_ReadReg(XPSR)
T3608 011:714.356 - 0.007ms returns 0x2100001F
T3608 011:714.363 JLINK_HasError()
T3608 011:714.369 JLINK_ClrBPEx(BPHandle = 0x00000004)
T3608 011:714.374 - 0.008ms returns 0x00
T3608 011:714.380 JLINK_HasError()
T3608 011:714.386 JLINK_HasError()
T3608 011:714.391 JLINK_ReadMemU32(0xE000ED30, 0x1 Items)
T3608 011:714.400   CPU_ReadMem(4 bytes @ 0xE000ED30)
T3608 011:715.003   Data:  0B 00 00 00
T3608 011:715.012 - 0.623ms returns 1 (0x1)
T3608 011:715.019 JLINK_ReadMemU32(0xE0001028, 0x1 Items)
T3608 011:715.027   CPU_ReadMem(4 bytes @ 0xE0001028)
T3608 011:715.671   Data:  00 00 00 00
T3608 011:715.681   Debug reg: DWT_FUNC[0]
T3608 011:715.688 - 0.671ms returns 1 (0x1)
T3608 011:715.695 JLINK_ReadMemU32(0xE0001038, 0x1 Items)
T3608 011:715.703   CPU_ReadMem(4 bytes @ 0xE0001038)
T3608 011:716.305   Data:  00 02 00 00
T3608 011:716.315   Debug reg: DWT_FUNC[1]
T3608 011:716.322 - 0.629ms returns 1 (0x1)
T3608 011:716.328 JLINK_ReadMemU32(0xE0001048, 0x1 Items)
T3608 011:716.336   CPU_ReadMem(4 bytes @ 0xE0001048)
T3608 011:716.952   Data:  00 00 00 00
T3608 011:716.962   Debug reg: DWT_FUNC[2]
T3608 011:716.969 - 0.642ms returns 1 (0x1)
T3608 011:716.975 JLINK_ReadMemU32(0xE0001058, 0x1 Items)
T3608 011:716.983   CPU_ReadMem(4 bytes @ 0xE0001058)
T3608 011:717.669   Data:  00 00 00 00
T3608 011:717.678   Debug reg: DWT_FUNC[3]
T3608 011:717.685 - 0.712ms returns 1 (0x1)
T3608 011:717.725 JLINK_HasError()
T3608 011:717.732 JLINK_ReadReg(R0)
T3608 011:717.738 - 0.009ms returns 0x0000328B
T3608 011:717.744 JLINK_ReadReg(R1)
T3608 011:717.750 - 0.007ms returns 0x00FFCD74
T3608 011:717.756 JLINK_ReadReg(R2)
T3608 011:717.761 - 0.007ms returns 0xFFFF0280
T3608 011:717.767 JLINK_ReadReg(R3)
T3608 011:717.772 - 0.007ms returns 0x00000007
T3608 011:717.778 JLINK_ReadReg(R4)
T3608 011:717.783 - 0.007ms returns 0x00000000
T3608 011:717.789 JLINK_ReadReg(R5)
T3608 011:717.795 - 0.007ms returns 0x20000060
T3608 011:717.800 JLINK_ReadReg(R6)
T3608 011:717.806 - 0.007ms returns 0x00000000
T3608 011:717.811 JLINK_ReadReg(R7)
T3608 011:717.817 - 0.007ms returns 0x00000000
T3608 011:717.822 JLINK_ReadReg(R8)
T3608 011:717.828 - 0.007ms returns 0x00000000
T3608 011:717.834 JLINK_ReadReg(R9)
T3608 011:717.839 - 0.007ms returns 0x00000000
T3608 011:717.845 JLINK_ReadReg(R10)
T3608 011:717.850 - 0.007ms returns 0x0800339C
T3608 011:717.856 JLINK_ReadReg(R11)
T3608 011:717.861 - 0.007ms returns 0x00000000
T3608 011:717.867 JLINK_ReadReg(R12)
T3608 011:717.872 - 0.007ms returns 0x00000019
T3608 011:717.878 JLINK_ReadReg(R13 (SP))
T3608 011:717.884 - 0.008ms returns 0x200007B8
T3608 011:717.890 JLINK_ReadReg(R14)
T3608 011:717.895 - 0.007ms returns 0x08001E8F
T3608 011:717.901 JLINK_ReadReg(R15 (PC))
T3608 011:717.906 - 0.007ms returns 0x08001F22
T3608 011:717.912 JLINK_ReadReg(XPSR)
T3608 011:717.917 - 0.007ms returns 0x2100001F
T3608 011:717.962 JLINK_ReadReg(MSP)
T3608 011:717.970 - 0.010ms returns 0x200007B8
T3608 011:717.975 JLINK_ReadReg(PSP)
T3608 011:717.981 - 0.007ms returns 0x00000000
T3608 011:717.986 JLINK_ReadReg(CFBP)
T3608 011:717.992 - 0.007ms returns 0x00000000
T0498 011:718.127 JLINK_ReadMemEx(0x2000080C, 0x4 Bytes, Flags = 0x02000000)
T0498 011:718.148   CPU_ReadMem(4 bytes @ 0x2000080C)
T0498 011:718.786   Data:  83 08 00 08
T0498 011:718.797 - 0.672ms returns 4 (0x4)
T0498 011:718.810 JLINK_ReadMemEx(0x20000808, 0x4 Bytes, Flags = 0x02000000)
T0498 011:718.819   CPU_ReadMem(4 bytes @ 0x20000808)
T0498 011:719.439   Data:  00 00 00 00
T0498 011:719.448 - 0.640ms returns 4 (0x4)
T0498 011:719.455 JLINK_ReadMemEx(0x2000080C, 0x4 Bytes, Flags = 0x02000000)
T0498 011:719.463   CPU_ReadMem(4 bytes @ 0x2000080C)
T0498 011:720.066   Data:  83 08 00 08
T0498 011:720.075 - 0.622ms returns 4 (0x4)
T0498 011:720.084 JLINK_ReadMemEx(0x20000814, 0x4 Bytes, Flags = 0x02000000)
T0498 011:720.092   CPU_ReadMem(4 bytes @ 0x20000814)
T0498 011:720.693   Data:  F9 FF FF FF
T0498 011:720.702 - 0.621ms returns 4 (0x4)
T0498 011:720.710 JLINK_ReadMemEx(0x20000830, 0x4 Bytes, Flags = 0x02000000)
T0498 011:720.717   CPU_ReadMem(4 bytes @ 0x20000830)
T0498 011:721.319   Data:  4A 24 00 08
T0498 011:721.328 - 0.621ms returns 4 (0x4)
T0498 011:721.335 JLINK_ReadMemEx(0x20000834, 0x4 Bytes, Flags = 0x02000000)
T0498 011:721.343   CPU_ReadMem(4 bytes @ 0x20000834)
T0498 011:721.939   Data:  00 00 00 41
T0498 011:721.948 - 0.615ms returns 4 (0x4)
T0498 011:721.955 JLINK_ReadMemEx(0x2000082C, 0x4 Bytes, Flags = 0x02000000)
T0498 011:721.963   CPU_ReadMem(4 bytes @ 0x2000082C)
T0498 011:722.565   Data:  AD 23 00 08
T0498 011:722.574 - 0.621ms returns 4 (0x4)
T0498 011:722.581 JLINK_ReadMemEx(0xE000ED28, 0x4 Bytes, Flags = 0x02000000)
T0498 011:722.589   CPU_ReadMem(4 bytes @ 0xE000ED28)
T0498 011:723.187   Data:  00 00 00 00
T0498 011:723.196 - 0.617ms returns 4 (0x4)
T0498 011:723.206 JLINK_ReadMemEx(0x20000810, 0x4 Bytes, Flags = 0x02000000)
T0498 011:723.214   CPU_ReadMem(4 bytes @ 0x20000810)
T0498 011:723.811   Data:  00 00 00 00
T0498 011:723.820 - 0.616ms returns 4 (0x4)
T0498 011:723.827 JLINK_ReadMemEx(0x20000814, 0x4 Bytes, Flags = 0x02000000)
T0498 011:723.835   CPU_ReadMem(4 bytes @ 0x20000814)
T0498 011:724.436   Data:  F9 FF FF FF
T0498 011:724.446 - 0.620ms returns 4 (0x4)
T0498 011:724.453 JLINK_ReadMemEx(0x20000844, 0x4 Bytes, Flags = 0x02000000)
T0498 011:724.461   CPU_ReadMem(4 bytes @ 0x20000844)
T0498 011:725.055   Data:  4B 01 00 08
T0498 011:725.064 - 0.613ms returns 4 (0x4)
T0498 011:725.078 JLINK_ReadMemEx(0x20000806, 0x2 Bytes, Flags = 0x02000000)
T0498 011:725.086   CPU_ReadMem(2 bytes @ 0x20000806)
T0498 011:725.703   Data:  D0 07
T0498 011:725.714 - 0.639ms returns 2 (0x2)
T0498 011:725.724 JLINK_ReadMemEx(0x20000804, 0x2 Bytes, Flags = 0x02000000)
T0498 011:725.733   CPU_ReadMem(2 bytes @ 0x20000804)
T0498 011:726.348   Data:  94 02
T0498 011:726.360 - 0.639ms returns 2 (0x2)
T0498 011:726.370 JLINK_ReadMemEx(0x20000800, 0x4 Bytes, Flags = 0x02000000)
T0498 011:726.380   CPU_ReadMem(4 bytes @ 0x20000800)
T0498 011:726.975   Data:  8B 32 00 00
T0498 011:726.984 - 0.616ms returns 4 (0x4)
T0498 011:727.014 JLINK_HasError()
T0498 011:727.021 JLINK_ReadMemU32(0xE0001004, 0x1 Items)
T0498 011:727.029   CPU_ReadMem(4 bytes @ 0xE0001004)
T0498 011:727.667   Data:  6B 00 02 00
T0498 011:727.676   Debug reg: DWT_CYCCNT
T0498 011:727.683 - 0.664ms returns 1 (0x1)
T0498 011:727.796 JLINK_ReadMemEx(0x20000238, 0x4 Bytes, Flags = 0x02000000)
T0498 011:727.806   CPU_ReadMem(4 bytes @ 0x20000238)
T0498 011:728.409   Data:  9A FE FF 01
T0498 011:728.418 - 0.624ms returns 4 (0x4)
T0498 011:728.681 JLINK_ReadMemEx(0x2000023C, 0x4 Bytes, Flags = 0x02000000)
T0498 011:728.695   CPU_ReadMem(4 bytes @ 0x2000023C)
T0498 011:729.300   Data:  05 FE FF 01
T0498 011:729.309 - 0.630ms returns 4 (0x4)
T0498 011:729.505 JLINK_ReadMemEx(0x20000800, 0x4 Bytes, Flags = 0x02000000)
T0498 011:729.547   CPU_ReadMem(4 bytes @ 0x20000800)
T0498 011:730.187   Data:  8B 32 00 00
T0498 011:730.197 - 0.694ms returns 4 (0x4)
T0498 011:730.406 JLINK_ReadMemEx(0x40070000, 0x7C Bytes, Flags = 0x02000004)
T0498 011:730.420   CPU_ReadMem(124 bytes @ 0x40070000)
T0498 011:732.921   Data:  0D 00 00 00 4F 00 00 00 63 00 00 00 03 00 00 00 ...
T0498 011:732.929 - 2.525ms returns 124 (0x7C)
T0498 011:732.940 JLINK_ReadMemEx(0x4007007C, 0x4 Bytes, Flags = 0x02000004)
T0498 011:732.947   CPU_ReadMem(4 bytes @ 0x4007007C)
T0498 011:733.547   Data:  00 00 00 00
T0498 011:733.557 - 0.620ms returns 4 (0x4)
T3608 012:538.824 JLINK_ReadMemEx(0x08001F22, 0x2 Bytes, Flags = 0x02000000)
T3608 012:538.862   CPU_ReadMem(64 bytes @ 0x08001F00)
T3608 012:540.474    -- Updating DA cache (64 bytes @ 0x08001F00)
T3608 012:540.492    -- Read from DA cache (2 bytes @ 0x08001F22)
T3608 012:540.500   Data:  00 F0
T3608 012:540.508 - 1.686ms returns 2 (0x2)
T3608 012:540.517 JLINK_HasError()
T3608 012:540.525 JLINK_Step()
T3608 012:541.149    -- Read from DA cache (2 bytes @ 0x08001F22)
T3608 012:541.159   -- Not simulated
T3608 012:541.174   CPU_WriteMem(4 bytes @ 0xE0002008)
T3608 012:548.130 - 7.614ms returns 0
T3608 012:548.148 JLINK_HasError()
T3608 012:548.155 JLINK_ReadReg(R15 (PC))
T3608 012:548.162 - 0.009ms returns 0x08002578
T3608 012:548.167 JLINK_ReadReg(XPSR)
T3608 012:548.172 - 0.007ms returns 0x2100001F
T3608 012:548.183 JLINK_HasError()
T3608 012:548.214 JLINK_SetBPEx(Addr = 0x08001F22, Type = 0xFFFFFFF2)
T3608 012:548.221 - 0.009ms returns 0x00000005
T3608 012:548.226 JLINK_HasError()
T3608 012:548.231 JLINK_HasError()
T3608 012:548.236 JLINK_Go()
T3608 012:548.244   CPU_WriteMem(4 bytes @ 0xE0002000)
T3608 012:548.806   CPU_ReadMem(4 bytes @ 0xE0001000)
T3608 012:549.408   CPU_WriteMem(4 bytes @ 0xE0002008)
T3608 012:550.769 - 2.537ms
T3608 012:650.816 JLINK_HasError()
T3608 012:650.830 JLINK_IsHalted()
T3608 012:655.647 - 4.828ms returns TRUE
T3608 012:655.665 JLINK_HasError()
T3608 012:655.671 JLINK_Halt()
T3608 012:655.676 - 0.007ms returns 0x00
T3608 012:655.682 JLINK_IsHalted()
T3608 012:655.687 - 0.007ms returns TRUE
T3608 012:655.693 JLINK_IsHalted()
T3608 012:655.698 - 0.007ms returns TRUE
T3608 012:655.703 JLINK_IsHalted()
T3608 012:655.708 - 0.007ms returns TRUE
T3608 012:655.714 JLINK_HasError()
T3608 012:655.720 JLINK_ReadReg(R15 (PC))
T3608 012:655.727 - 0.009ms returns 0x08001F22
T3608 012:655.733 JLINK_ReadReg(XPSR)
T3608 012:655.738 - 0.007ms returns 0x2100001F
T3608 012:655.746 JLINK_HasError()
T3608 012:655.752 JLINK_ClrBPEx(BPHandle = 0x00000005)
T3608 012:655.757 - 0.008ms returns 0x00
T3608 012:655.763 JLINK_HasError()
T3608 012:655.769 JLINK_HasError()
T3608 012:655.774 JLINK_ReadMemU32(0xE000ED30, 0x1 Items)
T3608 012:655.783   CPU_ReadMem(4 bytes @ 0xE000ED30)
T3608 012:656.389   Data:  0B 00 00 00
T3608 012:656.398 - 0.626ms returns 1 (0x1)
T3608 012:656.405 JLINK_ReadMemU32(0xE0001028, 0x1 Items)
T3608 012:656.413   CPU_ReadMem(4 bytes @ 0xE0001028)
T3608 012:657.016   Data:  00 00 00 00
T3608 012:657.030   Debug reg: DWT_FUNC[0]
T3608 012:657.036 - 0.634ms returns 1 (0x1)
T3608 012:657.044 JLINK_ReadMemU32(0xE0001038, 0x1 Items)
T3608 012:657.053   CPU_ReadMem(4 bytes @ 0xE0001038)
T3608 012:657.683   Data:  00 02 00 00
T3608 012:657.695   Debug reg: DWT_FUNC[1]
T3608 012:657.702 - 0.660ms returns 1 (0x1)
T3608 012:657.710 JLINK_ReadMemU32(0xE0001048, 0x1 Items)
T3608 012:657.719   CPU_ReadMem(4 bytes @ 0xE0001048)
T3608 012:658.319   Data:  00 00 00 00
T3608 012:658.329   Debug reg: DWT_FUNC[2]
T3608 012:658.335 - 0.628ms returns 1 (0x1)
T3608 012:658.342 JLINK_ReadMemU32(0xE0001058, 0x1 Items)
T3608 012:658.350   CPU_ReadMem(4 bytes @ 0xE0001058)
T3608 012:658.949   Data:  00 00 00 00
T3608 012:658.958   Debug reg: DWT_FUNC[3]
T3608 012:658.965 - 0.625ms returns 1 (0x1)
T3608 012:659.005 JLINK_HasError()
T3608 012:659.012 JLINK_ReadReg(R0)
T3608 012:659.018 - 0.009ms returns 0x000028D4
T3608 012:659.024 JLINK_ReadReg(R1)
T3608 012:659.087 - 0.065ms returns 0x00FFD72B
T3608 012:659.093 JLINK_ReadReg(R2)
T3608 012:659.098 - 0.007ms returns 0xBFFF09C0
T3608 012:659.104 JLINK_ReadReg(R3)
T3608 012:659.109 - 0.007ms returns 0x00000006
T3608 012:659.115 JLINK_ReadReg(R4)
T3608 012:659.120 - 0.007ms returns 0x00000000
T3608 012:659.126 JLINK_ReadReg(R5)
T3608 012:659.131 - 0.007ms returns 0x20000060
T3608 012:659.137 JLINK_ReadReg(R6)
T3608 012:659.142 - 0.007ms returns 0x00000000
T3608 012:659.148 JLINK_ReadReg(R7)
T3608 012:659.153 - 0.007ms returns 0x00000000
T3608 012:659.159 JLINK_ReadReg(R8)
T3608 012:659.164 - 0.007ms returns 0x00000000
T3608 012:659.170 JLINK_ReadReg(R9)
T3608 012:659.175 - 0.007ms returns 0x00000000
T3608 012:659.180 JLINK_ReadReg(R10)
T3608 012:659.186 - 0.007ms returns 0x0800339C
T3608 012:659.191 JLINK_ReadReg(R11)
T3608 012:659.196 - 0.007ms returns 0x00000000
T3608 012:659.202 JLINK_ReadReg(R12)
T3608 012:659.207 - 0.007ms returns 0x0000001A
T3608 012:659.213 JLINK_ReadReg(R13 (SP))
T3608 012:659.219 - 0.007ms returns 0x200007B8
T3608 012:659.224 JLINK_ReadReg(R14)
T3608 012:659.229 - 0.007ms returns 0x08001E8F
T3608 012:659.235 JLINK_ReadReg(R15 (PC))
T3608 012:659.240 - 0.007ms returns 0x08001F22
T3608 012:659.246 JLINK_ReadReg(XPSR)
T3608 012:659.251 - 0.007ms returns 0x2100001F
T3608 012:659.257 JLINK_ReadReg(MSP)
T3608 012:659.262 - 0.007ms returns 0x200007B8
T3608 012:659.267 JLINK_ReadReg(PSP)
T3608 012:659.273 - 0.007ms returns 0x00000000
T3608 012:659.278 JLINK_ReadReg(CFBP)
T3608 012:659.283 - 0.007ms returns 0x00000000
T0498 012:659.415 JLINK_ReadMemEx(0x2000080C, 0x4 Bytes, Flags = 0x02000000)
T0498 012:659.435   CPU_ReadMem(4 bytes @ 0x2000080C)
T0498 012:660.067   Data:  83 08 00 08
T0498 012:660.079 - 0.666ms returns 4 (0x4)
